q	I(q)	dI(q)
0.0002026587724685669	21603.90234375	96.30918884277344
0.00021756603382527828	14329.9892578125	53.04261016845703
0.00023247329518198966	12983.4658203125	37.42459487915039
0.00024738055653870104	10241.716796875	26.841415405273438
0.00026228781789541247	8845.767578125	22.25527000427246
0.00027719505596905946	7992.0205078125	19.403255462646484
0.00029210231732577083	7220.9033203125	17.13077163696289
0.00030700957868248226	6690.8798828125	15.553382873535156
0.00032191684003919364	6396.51025390625	14.446264266967773
0.000336824101395905	6156.8115234375	13.528963088989258
0.00035173133946955206	5815.0048828125	12.612735748291016
0.00036663860082626344	5590.5908203125	11.906927108764648
0.0003815458621829748	5437.50244140625	11.330759048461914
0.0003964531235396862	5268.84814453125	10.793438911437988
0.00041136038489639757	5108.408203125	10.304220199584961
0.000426267646253109	5019.03515625	9.92810344696045
0.0004411749076098204	4941.54833984375	9.580785751342773
0.00045608216896653175	4861.673828125	9.26799488067627
0.0004709893837571144	4813.56298828125	9.012084007263184
0.0004858966451138258	4778.28369140625	8.778972625732422
0.0005008039064705372	4714.72509765625	8.518855094909668
0.0005157111678272486	4692.84326171875	8.096494674682617
0.0005306184291839599	4651.79150390625	7.711742401123047
0.0005455256905406713	4581.103515625	7.407810211181641
0.0005604329518973828	4559.46630859375	7.235043525695801
0.0005753402132540941	4524.423828125	7.094181060791016
0.0005902474746108055	4482.5986328125	6.951413154602051
0.0006051547359675169	4471.8369140625	6.845835208892822
0.0006200619507580995	4457.17431640625	6.735879421234131
0.0006349692121148109	4431.0087890625	6.619838714599609
0.0006498764734715224	4411.3271484375	6.520979404449463
0.0006647837348282337	4383.65087890625	6.411777496337891
0.0006796909961849451	4371.7900390625	6.323878288269043
0.0006945982575416565	4345.93212890625	6.2254252433776855
0.0007095055188983679	4325.06201171875	6.134313583374023
0.0007244127802550793	4314.212890625	6.057997703552246
0.0007393200416117906	4299.59765625	5.974079608917236
0.0007542273029685021	4294.451171875	5.905900478363037
0.0007691345177590847	4284.5703125	5.831244468688965
0.0007840418256819248	4269.0986328125	5.763050556182861
0.0007989490404725075	4248.27099609375	5.689694881439209
0.0008138563483953476	4238.20458984375	5.624756813049316
0.0008287635631859302	4219.1650390625	5.548548698425293
0.0008436707779765129	4214.4267578125	5.484519004821777
0.000858578085899353	4197.6005859375	5.421377658843994
0.0008734853006899356	4186.1005859375	5.3665971755981445
0.0008883926086127758	4182.294921875	5.31241512298584
0.0009032998234033585	4178.6181640625	5.2638468742370605
0.0009182071313261986	4162.0888671875	5.205175876617432
0.0009331143461167813	4150.478515625	5.153315544128418
0.0009480216540396214	4148.380859375	5.110681056976318
0.000962928868830204	4134.2861328125	5.057825088500977
0.0009778361767530442	4125.5185546875	5.010432243347168
0.0009927433915436269	4115.7001953125	4.960532188415527
0.0010076506063342095	4096.70703125	4.912038326263428
0.0010225579142570495	4082.912841796875	4.866534233093262
0.0010374651290476322	4071.389404296875	4.820594310760498
0.0010523724369704724	4056.108154296875	4.829280853271484
0.001067279651761055	4058.38720703125	4.89838171005249
0.001082186959683895	4051.82470703125	4.918869972229004
0.0010970941744744777	4047.075439453125	4.927922248840332
0.0011120014823973179	4037.904296875	4.924328327178955
0.0011269086971879005	4019.572998046875	4.919178485870361
0.0011418159119784832	4011.080810546875	4.907892227172852
0.0011567232199013234	3998.009033203125	4.890449523925781
0.001171630434691906	3997.091064453125	4.881567001342773
0.001186537742614746	3991.009765625	4.867051124572754
0.0012014449574053287	3982.086669921875	4.853804111480713
0.001216352265328169	3968.682861328125	4.834486961364746
0.0012312594801187516	3958.53125	4.821008682250977
0.0012461667880415916	3937.559814453125	4.796144485473633
0.0012610740028321742	3933.58056640625	4.782156944274902
0.0012759813107550144	3925.352783203125	4.763539791107178
0.001290888525545597	3919.634765625	4.745376110076904
0.0013057957403361797	3916.020263671875	4.732666492462158
0.00132070304825902	3904.986328125	4.712580680847168
0.0013356102630496026	3889.880126953125	4.690570831298828
0.0013505175709724426	3892.352783203125	4.683171272277832
0.0013654247857630252	3875.72607421875	4.654750823974609
0.0013803320936858654	3866.805419921875	4.637051105499268
0.001395239308476448	3861.998046875	4.621869087219238
0.001410146616399288	3848.08154296875	4.600089073181152
0.0014250538311898707	3835.82177734375	4.580870628356934
0.0014399610459804534	3816.919189453125	4.552834987640381
0.0014548683539032936	3817.197998046875	4.543206214904785
0.0014697755686938763	3803.919189453125	4.520718574523926
0.0014846828766167165	3796.953857421875	4.505400657653809
0.0014995900914072991	3784.62939453125	4.485348701477051
0.0015144973993301391	3774.891845703125	4.464023590087891
0.0015294046141207218	3766.48681640625	4.445157051086426
0.001544311922043562	3759.67333984375	4.429532051086426
0.0015592191368341446	3744.61767578125	4.40812873840332
0.0015741264447569846	3732.584716796875	4.3885297775268555
0.00158903356641531	3718.1015625	4.3660383224487305
0.00160394087433815	3715.0546875	4.353585243225098
0.0016188481822609901	3707.866455078125	4.309439182281494
0.0016337554901838303	3700.36376953125	4.206284046173096
0.0016486626118421555	3684.039794921875	4.125670433044434
0.0016635699197649957	3672.26953125	4.069056034088135
0.0016784772276878356	3657.702392578125	4.0214338302612305
0.0016933845356106759	3654.15478515625	3.9809958934783936
0.001708291657269001	3646.19384765625	3.940800189971924
0.0017231989651918412	3635.5234375	3.9047019481658936
0.0017381062731146812	3632.09814453125	3.87428617477417
0.0017530133947730065	3619.106689453125	3.8690731525421143
0.0017679207026958465	3611.91259765625	3.912513256072998
0.0017828280106186867	3599.013671875	3.9240641593933105
0.0017977353185415269	3585.41259765625	3.925230026245117
0.001812642440199852	3574.637939453125	3.924776077270508
0.0018275497481226922	3558.3515625	3.915210247039795
0.0018424570560455322	3559.09423828125	3.9147746562957764
0.0018573643639683724	3548.186279296875	3.9058594703674316
0.0018722714856266975	3536.10791015625	3.8951122760772705
0.0018871787935495377	3527.12158203125	3.886125087738037
0.0019020861014723777	3507.5625	3.8704299926757812
0.001916993223130703	3503.73291015625	3.861985445022583
0.001931900531053543	3495.02978515625	3.825932025909424
0.0019468078389763832	3485.72265625	3.746237277984619
0.0019617151468992234	3469.966796875	3.6859774589538574
0.0019766222685575485	3458.82666015625	3.641857862472534
0.0019915295764803887	3449.14208984375	3.60438871383667
0.002006436884403229	3440.286376953125	3.571183443069458
0.0020213441923260687	3433.43896484375	3.542623996734619
0.0020362513139843942	3418.53125	3.510094404220581
0.002051158621907234	3404.344970703125	3.4761767387390137
0.0020660659298300742	3393.80615234375	3.4452922344207764
0.0020809730514883993	3381.23974609375	3.4117584228515625
0.0020958803594112395	3370.4765625	3.3816311359405518
0.0021107876673340797	3361.841064453125	3.3535423278808594
0.00212569497525692	3353.58544921875	3.3278441429138184
0.002140602096915245	3337.192138671875	3.2960541248321533
0.0021555094048380853	3324.979248046875	3.270381450653076
0.0021704167127609255	3310.596923828125	3.2421798706054688
0.0021853238344192506	3301.979248046875	3.2163262367248535
0.0022002311423420908	3293.68017578125	3.1937177181243896
0.0022151384502649306	3286.746826171875	3.175220489501953
0.0022300457581877708	3275.26318359375	3.156015396118164
0.002244952879846096	3255.876953125	3.131662368774414
0.002259860187768936	3244.717529296875	3.113276958465576
0.0022747674956917763	3229.039794921875	3.0913751125335693
0.0022896748036146165	3221.67822265625	3.074651002883911
0.0023045819252729416	3211.3974609375	3.055880546569824
0.002319489233195782	3201.0107421875	3.037632942199707
0.002334396541118622	3189.06201171875	3.0199410915374756
0.002349303662776947	3171.68408203125	2.997696876525879
0.0023642109706997873	3165.13525390625	2.9823555946350098
0.002379118278622627	3150.08056640625	2.962388038635254
0.0023940255865454673	3140.67529296875	2.947636365890503
0.0024089327082037924	3130.775390625	2.934889316558838
0.0024238400161266326	3116.51806640625	2.919314384460449
0.002438747324049473	3105.97802734375	2.9046630859375
0.002453654631972313	3099.045654296875	2.8938729763031006
0.002468561753630638	3088.5595703125	2.88093638420105
0.0024834690615534783	3073.24462890625	2.864964246749878
0.0024983763694763185	3054.74072265625	2.8490054607391357
0.0025132834911346436	3048.32080078125	2.8379769325256348
0.002528190799057484	3038.3720703125	2.824237585067749
0.0025430981069803236	3023.944091796875	2.8060429096221924
0.002558005414903164	3017.921142578125	2.793342113494873
0.002572912536561489	3004.366943359375	2.7772698402404785
0.002587819844484329	2992.027099609375	2.760082960128784
0.0026027271524071693	2982.37060546875	2.746554136276245
0.0026176344603300095	2967.85498046875	2.7300236225128174
0.0026325415819883347	2950.94189453125	2.711052179336548
0.002647448889911175	2941.35595703125	2.69810152053833
0.002662356197834015	2927.71923828125	2.6807961463928223
0.00267726331949234	2919.871826171875	2.667748212814331
0.0026921706274151804	2909.31884765625	2.6534180641174316
0.00270707793533802	2897.26513671875	2.638688802719116
0.0027219852432608604	2888.081787109375	2.6258604526519775
0.0027368923649191855	2874.291015625	2.609682559967041
0.0027517996728420257	2863.45556640625	2.595641613006592
0.002766706980764866	2850.114013671875	2.5800135135650635
0.002781614102423191	2842.41845703125	2.568310022354126
0.002796521410346031	2824.789306640625	2.5506856441497803
0.0028114287182688714	2815.932861328125	2.538740873336792
0.0028263360261917116	2805.001953125	2.524794340133667
0.0028412431478500367	2791.990966796875	2.510397434234619
0.002856150455772877	2781.879638671875	2.4982962608337402
0.0028710577636957167	2768.211669921875	2.483546495437622
0.002885965071618557	2758.101318359375	2.4709222316741943
0.002900872193276882	2743.0771484375	2.456355571746826
0.002915779501199722	2732.56298828125	2.4443435668945312
0.0029306868091225624	2722.630126953125	2.433966636657715
0.0029455939307808875	2709.73388671875	2.4189071655273438
0.0029605012387037277	2696.17333984375	2.404815435409546
0.002975408546626568	2687.1796875	2.3946526050567627
0.002990315854549408	2677.760498046875	2.3838605880737305
0.0030052229762077332	2663.703369140625	2.369504928588867
0.0030201302841305734	2652.804931640625	2.3579227924346924
0.0030350375920534132	2640.64599609375	2.346292018890381
0.0030499448999762534	2630.942138671875	2.335299015045166
0.0030648520216345785	2619.276123046875	2.3238327503204346
0.0030797593295574187	2608.03076171875	2.3129990100860596
0.003094666637480259	2596.0859375	2.3007726669311523
0.003109573759138584	2582.947265625	2.2883989810943604
0.0031244810670614243	2572.07958984375	2.2769784927368164
0.0031393881887197494	2558.248291015625	2.263618230819702
0.0031542956829071047	2546.574951171875	2.2525670528411865
0.0031692028045654298	2534.633544921875	2.2405905723571777
0.0031841102987527846	2524.122314453125	2.2308852672576904
0.0031990174204111098	2513.1220703125	2.2203311920166016
0.0032139245420694353	2499.44189453125	2.208404779434204
0.00322883203625679	2483.98193359375	2.195371627807617
0.0032437391579151153	2475.27587890625	2.185370445251465
0.0032586462795734404	2464.0048828125	2.175163745880127
0.0032735537737607957	2446.81884765625	2.16257905960083
0.003288460895419121	2438.458740234375	2.1543219089508057
0.003303368017077446	2426.986328125	2.143228054046631
0.003318275511264801	2416.63623046875	2.133007526397705
0.0033331826329231263	2406.31884765625	2.1235029697418213
0.003348090127110481	2391.41650390625	2.1115598678588867
0.0033629972487688063	2379.92138671875	2.1014904975891113
0.003377904370427132	2369.103515625	2.091493844985962
0.0033928118646144867	2360.43603515625	2.08335542678833
0.003407718986272812	2345.62890625	2.071415662765503
0.003422626107931137	2333.679931640625	2.0610601902008057
0.003437533602118492	2323.2255859375	2.0517446994781494
0.0034524407237768173	2311.257080078125	2.0419325828552246
0.0034673478454351424	2300.212158203125	2.032503128051758
0.0034822553396224977	2288.9560546875	2.0227227210998535
0.003497162461280823	2276.979248046875	2.0123627185821533
0.0035120699554681777	2266.762451171875	2.0035200119018555
0.003526977077126503	2254.97900390625	1.9937671422958374
0.0035418841987848284	2246.916259765625	1.9864883422851562
0.0035567916929721832	2235.31201171875	1.9768974781036377
0.0035716988146305083	2223.961181640625	1.9670242071151733
0.0035866059362888334	2211.02197265625	1.957415223121643
0.0036015134304761887	2199.687744140625	1.9479541778564453
0.003616420552134514	2192.53662109375	1.9404070377349854
0.003631327673792839	2177.47412109375	1.9292409420013428
0.0036462351679801943	2168.632568359375	1.9216817617416382
0.0036611422896385194	2157.93603515625	1.9133119583129883
0.0036760497838258742	2143.80224609375	1.9030015468597412
0.0036909569054841994	2131.22705078125	1.8931108713150024
0.003705864027142525	2122.1796875	1.8864476680755615
0.0037207715213298798	2113.92431640625	1.8782545328140259
0.003735678642988205	2107.71923828125	1.8723323345184326
0.00375058576464653	2092.236083984375	1.860966444015503
0.0037654932588338853	2082.03076171875	1.8527014255523682
0.0037804003804922104	2068.05419921875	1.8429946899414062
0.0037953075021505355	2057.77294921875	1.8344967365264893
0.003810214996337891	2052.16943359375	1.8287334442138672
0.003825122117996216	2039.37890625	1.81939697265625
0.003840029239654541	2027.669189453125	1.8102678060531616
0.003854936733841896	2018.159423828125	1.802817940711975
0.0038698438555002214	2005.739013671875	1.7936038970947266
0.0038847513496875763	1994.1409912109375	1.78446364402771
0.0038996584713459014	1985.9984130859375	1.7781928777694702
0.0039145655930042265	1973.5953369140625	1.768730878829956
0.003929473087191581	1965.2373046875	1.7623579502105713
0.003944380208849907	1953.3118896484375	1.753586769104004
0.0039592873305082325	1941.834716796875	1.7447627782821655
0.003974194824695587	1930.6187744140625	1.7364377975463867
0.003989101946353912	1922.1578369140625	1.7300529479980469
0.0040040090680122375	1908.595703125	1.7200689315795898
0.004018916562199592	1900.241943359375	1.7129653692245483
0.004033823683857918	1889.7379150390625	1.705320119857788
0.004048731178045273	1878.491943359375	1.6978960037231445
0.004063638299703598	1866.526123046875	1.688546895980835
0.004078545421361923	1860.104736328125	1.6829382181167603
0.004093452915549278	1848.614013671875	1.674268126487732
0.0041083600372076035	1838.7275390625	1.6673873662948608
0.004123267158865929	1829.9183349609375	1.660395860671997
0.004138174653053284	1817.621337890625	1.6513923406600952
0.0041530817747116085	1808.228759765625	1.6440407037734985
0.004167988896369934	1799.3597412109375	1.6368300914764404
0.004182896390557289	1786.874267578125	1.6282298564910889
0.0041978035122156145	1776.8704833984375	1.620835304260254
0.004212711006402969	1767.263916015625	1.6134134531021118
0.004227618128061295	1757.447509765625	1.6062986850738525
0.00424252524971962	1747.438232421875	1.5981355905532837
0.0042574327439069744	1737.791259765625	1.5913127660751343
0.0042723398655653	1728.8128662109375	1.5844823122024536
0.0042872469872236255	1714.0638427734375	1.574325680732727
0.00430215448141098	1704.885986328125	1.5678256750106812
0.004317061603069305	1696.1246337890625	1.5604124069213867
0.004331968724727631	1685.6607666015625	1.5522735118865967
0.0043468762189149855	1680.647705078125	1.5476677417755127
0.004361783340573311	1666.78515625	1.5378098487854004
0.004376690834760666	1657.924560546875	1.5309598445892334
0.0043915979564189914	1649.669677734375	1.524486780166626
0.004406505078077316	1638.540771484375	1.5164978504180908
0.004421412572264671	1630.5743408203125	1.5094990730285645
0.0044363196939229965	1621.095458984375	1.5020458698272705
0.004451226815581322	1608.185302734375	1.4929430484771729
0.004466134309768677	1599.0601806640625	1.485896348953247
0.004481041431427002	1589.1669921875	1.478166103363037
0.004495948553085327	1582.1429443359375	1.4719836711883545
0.004510856047272682	1574.384033203125	1.4659888744354248
0.0045257631689310076	1564.6702880859375	1.4586938619613647
0.004540670663118362	1555.7230224609375	1.4519336223602295
0.004555577784776688	1543.223876953125	1.4435923099517822
0.004570484906435013	1534.5841064453125	1.4371323585510254
0.0045853924006223675	1525.9744873046875	1.4301018714904785
0.004600299522280693	1516.9405517578125	1.4227092266082764
0.004615206643939019	1509.31982421875	1.4171277284622192
0.0046301141381263735	1498.4998779296875	1.4097893238067627
0.004645021259784698	1489.036376953125	1.4023886919021606
0.004659928381443024	1480.95703125	1.3960565328598022
0.0046748358756303785	1472.18603515625	1.3894721269607544
0.004689742997288704	1462.095458984375	1.3822518587112427
0.004704650491476059	1449.9158935546875	1.3737359046936035
0.0047195576131343845	1443.192626953125	1.3682492971420288
0.004734464734792709	1433.6995849609375	1.361498236656189
0.004749372228980064	1428.3653564453125	1.3573569059371948
0.00476427935063839	1417.24609375	1.3490784168243408
0.004779186472296715	1406.9888916015625	1.3418718576431274
0.00479409396648407	1396.906005859375	1.334232211112976
0.004809001088142395	1389.3365478515625	1.3282461166381836
0.00482390820980072	1382.718994140625	1.3227555751800537
0.004838815703988075	1372.1798095703125	1.3152570724487305
0.004853722825646401	1365.43017578125	1.3097810745239258
0.0048686303198337555	1357.898193359375	1.30389404296875
0.004883537441492081	1346.450927734375	1.2961819171905518
0.004898444563150406	1338.467529296875	1.2904045581817627
0.004913352057337761	1331.050537109375	1.284443736076355
0.004928259178996086	1321.16064453125	1.2770323753356934
0.004943166300654412	1313.943359375	1.2713185548782349
0.0049580737948417665	1304.234375	1.2643688917160034
0.004972980916500091	1296.2181396484375	1.2584093809127808
0.004987888038158417	1288.265869140625	1.2530670166015625
0.005002795532345772	1279.202392578125	1.2466503381729126
0.005017702654004097	1272.031005859375	1.2404240369796753
0.005032609775662422	1265.68408203125	1.2353185415267944
0.005047517269849778	1255.9132080078125	1.228738784790039
0.005062424391508102	1247.2569580078125	1.2234094142913818
0.005077331885695457	1239.62353515625	1.2177189588546753
0.005092239007353783	1231.2427978515625	1.2112752199172974
0.005107146129012108	1223.772705078125	1.205082654953003
0.005122053623199463	1216.189697265625	1.1992080211639404
0.005136960744857788	1208.30419921875	1.1937096118927002
0.005151867866516113	1202.32568359375	1.1891214847564697
0.005166775360703468	1195.2513427734375	1.18381667137146
0.005181682482361794	1187.1280517578125	1.1780860424041748
0.005196589604020118	1179.9114990234375	1.172290563583374
0.005211497098207474	1171.2218017578125	1.1663496494293213
0.005226404219865799	1161.9805908203125	1.160175085067749
0.005241311714053154	1154.7403564453125	1.1547305583953857
0.005256218835711479	1146.175048828125	1.1489372253417969
0.005271125957369805	1140.309814453125	1.1444005966186523
0.00528603345155716	1132.123779296875	1.1384636163711548
0.005300940573215484	1122.927001953125	1.1321258544921875
0.00531584769487381	1116.6878662109375	1.1271717548370361
